 ****** HSPICE  --  A-2007.09  32-BIT    (Aug 28 2007) 17:25:39 03/23/2020 winnt
  Copyright (C) 2007 Synopsys, Inc. All Rights Reserved.                        
  Unpublished-rights reserved under US copyright laws.
  This program is protected by law and is subject to the 
  terms and conditions of the license agreement found in:
    C:\synopsys\Hspice_A-2007.09\license.txt
  Use of this program is your acceptance to be bound by this 
  license agreement. HSPICE is the trademark of Synopsys, Inc.
  Input File: f:\vlsiexp\inverter_1\cmos_inv.sp                                 
  lic:  
  lic: FLEXlm: v8.5b 
  lic: USER:   c1119                HOSTNAME: ZHUOXUPC 
  lic: HOSTID: "54ee75d9c038 6014b36cfaf6 00ff9dc7e326 00ffd6dbca79 0a0027000008
  
  lic: Using FLEXlm license file: 
  lic: C:\synopsys\Hspice_A-2007.09\license.dat 
  lic: Checkout 1 hspice;  Encryption code: AD47C1C891DA5D596A45 
  lic: License/Maintenance for hspice will expire on 31-dec-2020/2007.9 
  lic: NODE LOCKED license on hostid "54ee75d9c038 6014b36cfaf6 00ff9dc7e326 00f
 f
  lic:   
 Init: read install configuration file: C:\synopsys\Hspice_A-2007.09\meta.cfg
 Init: hspice initialization file: C:\synopsys\Hspice_A-2007.09\hspice.ini





 .options post brief
  **warning** (..\model\l0040ll_v1p4_1r.mdl:51)  model n11ll_ckt       device geometries will not be checked against the limits set bylmin, lmax, wmin and wmax. To enable this check, add a period(.)to the model name(i.e. enable model selector).
  **warning** (..\model\l0040ll_v1p4_1r.mdl:201)  model p11ll_ckt       device geometries will not be checked against the limits set bylmin, lmax, wmin and wmax. To enable this check, add a period(.)to the model name(i.e. enable model selector).
  **warning** (..\model\l0040ll_v1p4_1r.mdl:324)   model nhvt11ll_ckt is not used in netlist
  **warning** (..\model\l0040ll_v1p4_1r.mdl:453)   model phvt11ll_ckt is not used in netlist
  **warning** (..\model\l0040ll_v1p4_1r.mdl:573)   model nlvt11ll_ckt is not used in netlist
  **warning** (..\model\l0040ll_v1p4_1r.mdl:700)   model plvt11ll_ckt is not used in netlist
  **warning** (..\model\l0040ll_v1p4_1r.mdl:815)   model nt11ll_ckt is not used in netlist
  **warning** (..\model\l0040ll_v1p4_1r.mdl:928)   model n25ll_ckt is not used in netlist
  **warning** (..\model\l0040ll_v1p4_1r.mdl:1046)   model nod33ll_ckt is not used in netlist
  **warning** (..\model\l0040ll_v1p4_1r.mdl:1192)   model nud18ll_ckt is not used in netlist
  **warning** (..\model\l0040ll_v1p4_1r.mdl:1310)   model p25ll_ckt is not used in netlist
  **warning** (..\model\l0040ll_v1p4_1r.mdl:1430)   model pod33ll_ckt is not used in netlist
  **warning** (..\model\l0040ll_v1p4_1r.mdl:1554)   model pud18ll_ckt is not used in netlist
  **warning** (..\model\l0040ll_v1p4_1r.mdl:1675)   model nt25ll_ckt is not used in netlist
  **warning** (..\model\l0040ll_v1p4_1r.mdl:1793)   model ntod33ll_ckt is not used in netlist
  **warning** (..\model\l0040ll_v1p4_1r.mdl:1911)   model ntud18ll_ckt is not used in netlist
  **warning** (..\model\l0040ll_v1p4_1r.mdl:51)  model n11ll_ckt       device geometries will not be checked against the limits set bylmin, lmax, wmin and wmax. To enable this check, add a period(.)to the model name(i.e. enable model selector).
  **warning** (..\model\l0040ll_v1p4_1r.mdl:201)  model p11ll_ckt       device geometries will not be checked against the limits set bylmin, lmax, wmin and wmax. To enable this check, add a period(.)to the model name(i.e. enable model selector).
  **warning** (..\model\l0040ll_v1p4_1r.mdl:324)   model nhvt11ll_ckt is not used in netlist
  **warning** (..\model\l0040ll_v1p4_1r.mdl:453)   model phvt11ll_ckt is not used in netlist
  **warning** (..\model\l0040ll_v1p4_1r.mdl:573)   model nlvt11ll_ckt is not used in netlist
  **warning** (..\model\l0040ll_v1p4_1r.mdl:700)   model plvt11ll_ckt is not used in netlist
  **warning** (..\model\l0040ll_v1p4_1r.mdl:815)   model nt11ll_ckt is not used in netlist
  **warning** (..\model\l0040ll_v1p4_1r.mdl:928)   model n25ll_ckt is not used in netlist
  **warning** (..\model\l0040ll_v1p4_1r.mdl:1046)   model nod33ll_ckt is not used in netlist
  **warning** (..\model\l0040ll_v1p4_1r.mdl:1192)   model nud18ll_ckt is not used in netlist
  **warning** (..\model\l0040ll_v1p4_1r.mdl:1310)   model p25ll_ckt is not used in netlist
  **warning** (..\model\l0040ll_v1p4_1r.mdl:1430)   model pod33ll_ckt is not used in netlist
  **warning** (..\model\l0040ll_v1p4_1r.mdl:1554)   model pud18ll_ckt is not used in netlist
  **warning** (..\model\l0040ll_v1p4_1r.mdl:1675)   model nt25ll_ckt is not used in netlist
  **warning** (..\model\l0040ll_v1p4_1r.mdl:1793)   model ntod33ll_ckt is not used in netlist
  **warning** (..\model\l0040ll_v1p4_1r.mdl:1911)   model ntud18ll_ckt is not used in netlist

 **warning** both nodes of source     0:v2              
             are connected together

  Opening plot unit= 79
 file=f:\vlsiexp\inverter_1\cmos_inv.pa0                                       

 ****** HSPICE  --  A-2007.09  32-BIT    (Aug 28 2007) 17:25:39 03/23/2020 winnt
 ******  
 .title inverter (cmos) by zhuoxu                                               
  ******  operating point information      tnom=  25.000 temp=  25.000          
 ******  
 ***** operating point status is all       simulation time is     0.     
    node    =voltage      node    =voltage      node    =voltage

 +0:1       =   0.      0:2       = 999.9997m 0:vcc!    =   1.0000 


 ****  voltage sources

 subckt                        
 element  0:v1       0:vin     
  volts      1.0000     0.     
  current  -56.4580p    1.2523p
  power     56.4580p    0.     

     total voltage source power dissipation=   56.4580p       watts




 **** mosfets


 subckt   xinv.xp    xinv.xn   
 element  2:m1       3:m1      
 model    2:p11ll_ck 3:n11ll_ck
 region       Linear     Cutoff
  id       -55.8858p   54.9747p
  ibs      1.784e-20 -7.845e-21
  ibd      3.148e-19   -1.0871p
  vgs       -1.0000     0.     
  vds     -320.5853n  999.9997m
  vbs        0.         0.     
  vth     -617.6879m  512.0130m
  vdsat   -266.5163m   37.2400m
  vod     -382.3121m -512.0130m
  beta     638.3504u    1.8624m
  gam eff  290.4900m  310.3100m
  gm       109.9307p    1.4202n
  gds      195.0529u  133.2203p
  gmb       15.2748p   94.9993p
  cdtot    188.2344a   66.2045a
  cgtot    157.6557a   72.9431a
  cstot    190.3140a  120.2455a
  cbtot    179.4804a  129.7769a
  cgs       80.9537a   35.0814a
  cgd       75.6809a   29.6494a




          ***** job concluded
 ****** HSPICE  --  A-2007.09  32-BIT    (Aug 28 2007) 17:25:39 03/23/2020 winnt
 ******  
 .title inverter (cmos) by zhuoxu                                               
  ******  job statistics summary           tnom=  25.000 temp=  25.000          
 ******  

           total memory used        333 kbytes

  # nodes =       8 # elements=       5
  # diodes=       0 # bjts    =       0 # jfets   =       0 # mosfets =       2
  # va device =       0

    analysis           time    # points   tot. iter  conv.iter

    op point           0.01           1           6
    dc sweep           0.01         201         438
    readin             0.05
    errchk             0.01
    setup              0.01
    output             0.00
           total cpu time          0.11 seconds
               job started at  17:25:39 03/23/2020
               job ended   at  17:25:39 03/23/2020


 Init: hspice initialization file: C:\synopsys\Hspice_A-2007.09\hspice.ini
  lic: Release hspice token(s) 
