 ****** HSPICE  --  A-2007.09  32-BIT    (Aug 28 2007) 00:36:30 04/26/2020 winnt
  Copyright (C) 2007 Synopsys, Inc. All Rights Reserved.                        
  Unpublished-rights reserved under US copyright laws.
  This program is protected by law and is subject to the 
  terms and conditions of the license agreement found in:
    C:\synopsys\Hspice_A-2007.09\license.txt
  Use of this program is your acceptance to be bound by this 
  license agreement. HSPICE is the trademark of Synopsys, Inc.
  Input File: f:\vlsiexp\exp3_tsetup\t_setup.sp                                 
  lic:  
  lic: FLEXlm: v8.5b 
  lic: USER:   c1119                HOSTNAME: ZHUOXUPC 
  lic: HOSTID: "54ee75d9c038 6014b36cfaf6 00ff9dc7e326 00ffd6dbca79 0a0027000008
  
  lic: Using FLEXlm license file: 
  lic: C:\synopsys\Hspice_A-2007.09\license.dat 
  lic: Checkout 1 hspice;  Encryption code: AD47C1C891DA5D596A45 
  lic: License/Maintenance for hspice will expire on 31-dec-2020/2007.9 
  lic: NODE LOCKED license on hostid "54ee75d9c038 6014b36cfaf6 00ff9dc7e326 00f
 f
  lic:   
 Init: read install configuration file: C:\synopsys\Hspice_A-2007.09\meta.cfg
 Init: hspice initialization file: C:\synopsys\Hspice_A-2007.09\hspice.ini





 $ 基本配置
 .options post brief
  **warning** (..\model\l0040ll_v1p4_1r.mdl:51)  model n11ll_ckt       device geometries will not be checked against the limits set bylmin, lmax, wmin and wmax. To enable this check, add a period(.)to the model name(i.e. enable model selector).
  **warning** (..\model\l0040ll_v1p4_1r.mdl:201)  model p11ll_ckt       device geometries will not be checked against the limits set bylmin, lmax, wmin and wmax. To enable this check, add a period(.)to the model name(i.e. enable model selector).
  **warning** (..\model\l0040ll_v1p4_1r.mdl:324)   model nhvt11ll_ckt is not used in netlist
  **warning** (..\model\l0040ll_v1p4_1r.mdl:453)   model phvt11ll_ckt is not used in netlist
  **warning** (..\model\l0040ll_v1p4_1r.mdl:573)   model nlvt11ll_ckt is not used in netlist
  **warning** (..\model\l0040ll_v1p4_1r.mdl:700)   model plvt11ll_ckt is not used in netlist
  **warning** (..\model\l0040ll_v1p4_1r.mdl:815)   model nt11ll_ckt is not used in netlist
  **warning** (..\model\l0040ll_v1p4_1r.mdl:928)   model n25ll_ckt is not used in netlist
  **warning** (..\model\l0040ll_v1p4_1r.mdl:1046)   model nod33ll_ckt is not used in netlist
  **warning** (..\model\l0040ll_v1p4_1r.mdl:1192)   model nud18ll_ckt is not used in netlist
  **warning** (..\model\l0040ll_v1p4_1r.mdl:1310)   model p25ll_ckt is not used in netlist
  **warning** (..\model\l0040ll_v1p4_1r.mdl:1430)   model pod33ll_ckt is not used in netlist
  **warning** (..\model\l0040ll_v1p4_1r.mdl:1554)   model pud18ll_ckt is not used in netlist
  **warning** (..\model\l0040ll_v1p4_1r.mdl:1675)   model nt25ll_ckt is not used in netlist
  **warning** (..\model\l0040ll_v1p4_1r.mdl:1793)   model ntod33ll_ckt is not used in netlist
  **warning** (..\model\l0040ll_v1p4_1r.mdl:1911)   model ntud18ll_ckt is not used in netlist
  **warning** (..\model\l0040ll_v1p4_1r.mdl:51)  model n11ll_ckt       device geometries will not be checked against the limits set bylmin, lmax, wmin and wmax. To enable this check, add a period(.)to the model name(i.e. enable model selector).
  **warning** (..\model\l0040ll_v1p4_1r.mdl:201)  model p11ll_ckt       device geometries will not be checked against the limits set bylmin, lmax, wmin and wmax. To enable this check, add a period(.)to the model name(i.e. enable model selector).
  **warning** (..\model\l0040ll_v1p4_1r.mdl:324)   model nhvt11ll_ckt is not used in netlist
  **warning** (..\model\l0040ll_v1p4_1r.mdl:453)   model phvt11ll_ckt is not used in netlist
  **warning** (..\model\l0040ll_v1p4_1r.mdl:573)   model nlvt11ll_ckt is not used in netlist
  **warning** (..\model\l0040ll_v1p4_1r.mdl:700)   model plvt11ll_ckt is not used in netlist
  **warning** (..\model\l0040ll_v1p4_1r.mdl:815)   model nt11ll_ckt is not used in netlist
  **warning** (..\model\l0040ll_v1p4_1r.mdl:928)   model n25ll_ckt is not used in netlist
  **warning** (..\model\l0040ll_v1p4_1r.mdl:1046)   model nod33ll_ckt is not used in netlist
  **warning** (..\model\l0040ll_v1p4_1r.mdl:1192)   model nud18ll_ckt is not used in netlist
  **warning** (..\model\l0040ll_v1p4_1r.mdl:1310)   model p25ll_ckt is not used in netlist
  **warning** (..\model\l0040ll_v1p4_1r.mdl:1430)   model pod33ll_ckt is not used in netlist
  **warning** (..\model\l0040ll_v1p4_1r.mdl:1554)   model pud18ll_ckt is not used in netlist
  **warning** (..\model\l0040ll_v1p4_1r.mdl:1675)   model nt25ll_ckt is not used in netlist
  **warning** (..\model\l0040ll_v1p4_1r.mdl:1793)   model ntod33ll_ckt is not used in netlist
  **warning** (..\model\l0040ll_v1p4_1r.mdl:1911)   model ntud18ll_ckt is not used in netlist

 ***********************************************************************
 ** runlvl is invoked, you can disable it by:
      a) Add option runlvl=0 to your current simulation job.
      b) Copy $installdir/hspice.ini to your HOME directory and
         customize it by adding option runlvl=0, which disables
         it for all of your simulation jobs.
      c) Re-invoke $installdir/bin/config program and unselect the
         option runlvl setting in box 'hspice.ini' which disables
         it for whole group simulation jobs.

 ** runlvl is invoked, some options are ignored or automatically set:
      Options below are automatically set(user setting will overwrite them):
      if runlvl=6,            .option bypass=0
      if runlvl=[1|2|3|4|5],  .option bypass=2

      Options below are ignored, they are replaced by automated algorithms:
        lvltim    dvdt      ft    fast   trtol  absvar  relvar
          relq  chgtol    dvtr    imin    itl3    rmax

 ** runlvl is invoked, actual option value used by HSPICE are:
       runlvl= 3       bypass= 2      mbypass=   2.00   bytol= 100.00u
 ***********************************************************************


 **warning** both nodes of source     0:v2              
             are connected together


 **warning** dc voltage reset to initial transient source value
             in source        0:vclk                new dc=  0.0000D+00


 **warning** dc voltage reset to initial transient source value
             in source        0:vin                 new dc=  0.0000D+00

  Opening plot unit= 79
 file=f:\vlsiexp\exp3_tsetup\t_setup.pa0                                       

 ****** HSPICE  --  A-2007.09  32-BIT    (Aug 28 2007) 00:36:30 04/26/2020 winnt
 ******  
 .title t_setup measure by zhuoxu                                               
  ******  operating point information      tnom=  25.000 temp=  25.000          
 ******  
 ***** operating point status is all       simulation time is     0.     
     node    =voltage       node    =voltage       node    =voltage

 + 0:1       =   0.       0:2       = 493.2312m  0:3       =   0.     
 + 0:vcc!    =   1.0000   1:nclk    = 999.9997m  1:oi1     = 999.9997m
 + 1:oi2     = 999.9997m  1:oi3     = 192.6577n  1:oi4     = 999.9996m
 + 1:oi5     = 493.2287m  1:ot1     = 999.9996m  1:ot3     = 493.2306m


 ****  voltage sources

 subckt                                      
 element   0:v1        0:vclk      0:vin     
  volts       1.0000      0.          0.     
  current    -3.3024u     3.0161p     1.2523p
  power       3.3024u     0.          0.     

     total voltage source power dissipation=    3.3024u       watts




 **** mosfets


 subckt    xdff.xclk.  xdff.xclk.  xdff.xi1.x  xdff.xi1.x  xdff.xt1.x
 element  13:m1       14:m1       15:m1       16:m1       17:m1      
 model    13:p11ll_ck 14:n11ll_ck 15:p11ll_ck 16:n11ll_ck 17:p11ll_ck
 region        Linear      Cutoff      Linear      Cutoff      Linear
  id        -56.0957p    54.9747p   -60.0515p    54.9747p     3.4964p
  ibs       1.790e-20  -7.845e-21   1.915e-20  -7.845e-21   3.769e-19
  ibd       3.160e-19    -1.0871p   3.382e-19    -1.0871p   3.583e-19
  vgs        -1.0000      0.         -1.0000      0.       -999.9996m
  vds      -321.7896n   999.9997m  -344.4816n   999.9997m    20.0566n
  vbs         0.          0.          0.          0.        364.5382n
  vth      -617.6879m   512.0130m  -617.6879m   512.0130m  -617.6880m
  vdsat    -266.5163m    37.2400m  -266.5163m    37.2400m  -266.5161m
  vod      -382.3121m  -512.0130m  -382.3121m  -512.0130m  -382.3117m
  beta      638.3504u     1.8624m   638.3504u     1.8624m   638.3505u
  gam eff   290.4900m   310.3100m   290.4900m   310.3100m   290.4900m
  gm        110.3437p     1.4202n   118.1249p     1.4202n     6.8775p
  gds       195.0529u   133.2203p   195.0529u   133.2203p   195.0530u
  gmb        15.3322p    94.9993p    16.4134p    94.9993p   955.6294f
  cdtot     188.2344a    66.2045a   188.2343a    66.2045a   190.3139a
  cgtot     157.6557a    72.9431a   157.6557a    72.9431a   157.6557a
  cstot     190.3140a   120.2455a   190.3140a   120.2455a   188.2344a
  cbtot     179.4804a   129.7769a   179.4804a   129.7769a   179.4804a
  cgs        80.9537a    35.0814a    80.9537a    35.0814a    75.6810a
  cgd        75.6809a    29.6494a    75.6809a    29.6494a    80.9537a



 subckt    xdff.xt1.x  xdff.xi3.x  xdff.xi3.x  xdff.xi2.x  xdff.xi2.x
 element  18:m1       19:m1       20:m1       21:m1       22:m1      
 model    18:n11ll_ck 19:p11ll_ck 20:n11ll_ck 21:p11ll_ck 22:n11ll_ck
 region        Cutoff      Cutoff      Linear      Linear      Cutoff
  id        1.581e-19   -65.7900p    69.9121p   -56.2247p    54.9750p
  ibs        -1.0871p   2.078e-20  -5.419e-21   1.794e-20  -7.845e-21
  ibd        -1.0871p     1.0911p  -1.941e-19   3.167e-19    -1.0871p
  vgs        42.7486n  -364.5382n   999.9996m  -999.9998m   192.6577n
  vds        20.0566n  -999.9998m   192.6577n  -322.5296n   999.9997m
  vbs      -999.9996m     0.          0.          0.          0.     
  vth       667.2403m  -550.5441m   582.3806m  -617.6879m   512.0130m
  vdsat      37.0593m   -41.8710m   231.8301m  -266.5162m    37.2400m
  vod      -667.2402m   550.5438m   417.6191m  -382.3119m  -512.0128m
  beta        1.6057m     1.0217m     1.1964m   638.3505u     1.8624m
  gam eff   310.3100m   290.4900m   310.3100m   290.4900m   310.3100m
  gm          4.1603a     1.6139n   136.4007p   110.5975p     1.4202n
  gds         7.8820p   167.5037p   383.4422u   195.0528u   133.2209p
  gmb       3.097e-19   126.7961p    18.0979p    15.3674p    94.9998p
  cdtot      72.7962a    76.9235a   291.5453a   188.2344a    66.2045a
  cgtot      75.1553a    86.4316a   135.0978a   157.6557a    72.9431a
  cstot      71.9610a   128.7440a   215.4427a   190.3140a   120.2455a
  cbtot      78.4763a   138.3339a   177.0183a   179.4804a   129.7769a
  cgs        34.7690a    42.6654a    73.6943a    80.9537a    35.0814a
  cgd        34.9986a    34.1855a    60.8052a    75.6809a    29.6494a



 subckt    xdff.xt2.x  xdff.xt2.x  xdff.xi4.x  xdff.xi4.x  xdff.xt3.x
 element  23:m1       24:m1       25:m1       26:m1       27:m1      
 model    23:p11ll_ck 24:n11ll_ck 25:p11ll_ck 26:n11ll_ck 27:p11ll_ck
 region        Cutoff      Cutoff      Linear      Cutoff      Cutoff
  id          2.4833a     0.        -73.3981p    54.9750p    17.1734p
  ibs       3.778e-19    -1.0871p   2.337e-20  -7.845e-21   535.9093f
  ibd       3.343e-19    -1.0871p   4.134e-19    -1.0871p   4.418e-19
  vgs        42.7486n  -999.9996m  -999.9998m   192.6577n   506.7691m
  vds        42.0086n    42.0086n  -421.0437n   999.9996m   506.7690m
  vbs       364.5382n  -999.9996m     0.          0.        506.7694m
  vth      -617.6880m   667.2403m  -617.6879m   512.0130m  -583.6616m
  vdsat     -42.2504m    37.0593m  -266.5162m    37.2400m   -42.0604m
  vod       617.6880m    -1.6672   -382.3119m  -512.0128m     1.0904 
  beta      905.2800u     1.6056m   638.3505u     1.8624m   963.3094u
  gam eff   290.4900m   310.3100m   290.4900m   310.3100m   290.4900m
  gm         60.9814a     0.        144.3786p     1.4202n   421.5355p
  gds        59.1138p   2.866e-23   195.0528u   133.2209p    51.4104p
  gmb         6.8620a     0.         20.0613p    94.9998p    40.1021p
  cdtot     128.8606a    66.2048a   188.2343a    66.2045a   128.6628a
  cgtot      94.6052a    67.5637a   157.6557a    72.9431a    88.5644a
  cstot     129.3277a    66.2046a   190.3140a   120.2455a    87.4247a
  cbtot     181.6133a    81.2933a   179.4804a   129.7769a   146.6452a
  cgs        42.9360a    29.6716a    80.9537a    35.0814a    36.3765a
  cgd        42.0945a    29.6693a    75.6809a    29.6494a    42.6065a



 subckt    xdff.xt3.x  xdff.xi6.x  xdff.xi6.x  xdff.xi5.x  xdff.xi5.x
 element  28:m1       29:m1       30:m1       31:m1       32:m1      
 model    28:n11ll_ck 29:p11ll_ck 30:n11ll_ck 31:p11ll_ck 32:n11ll_ck
 region        Cutoff      Cutoff      Cutoff      Cutoff      Cutoff
  id         15.2294a    -1.6511u     1.6511u    -1.6510u     1.6511u
  ibs      -520.0131f   521.6156a  -168.5846a   521.6133a  -168.5855a
  ibd        -1.0871p   535.3629f  -519.7681f   535.3656f  -519.7654f
  vgs      -493.2306m  -506.7694m   493.2306m  -506.7688m   493.2312m
  vds       506.7690m  -506.7688m   493.2312m  -506.7713m   493.2287m
  vbs      -493.2306m     0.          0.          0.          0.     
  vth       583.0899m  -583.7686m   547.7142m  -583.7685m   547.7144m
  vdsat      37.5351m   -64.4069m    55.5436m   -64.4068m    55.5437m
  vod        -1.0763     76.9992m   -54.4836m    76.9997m   -54.4832m
  beta        1.7476m   938.5060u     1.7266m   938.5065u     1.7266m
  gam eff   310.3100m   290.4900m   310.3100m   290.4900m   310.3100m
  gm        397.8797a    25.2744u    26.4025u    25.2743u    26.4026u
  gds        51.1504a     3.5252u     2.8230u     3.5252u     2.8230u
  gmb        26.7762a     1.9735u     2.2106u     1.9735u     2.2106u
  cdtot      66.2045a    93.4818a    80.1018a    93.4817a    80.1019a
  cgtot      68.9972a   114.5797a   107.6952a   114.5796a   107.6953a
  cstot      76.3895a   157.2639a   150.1561a   157.2638a   150.1561a
  cbtot      90.0414a   144.3889a   136.5197a   144.3888a   136.5198a
  cgs        31.1099a    68.0714a    70.9683a    68.0714a    70.9684a
  cgd        29.6679a    41.0314a    32.6173a    41.0313a    32.6173a



 subckt    xdff.xt4.x  xdff.xt4.x
 element  33:m1       34:m1      
 model    33:p11ll_ck 34:n11ll_ck
 region        Cutoff      Cutoff
  id         -4.6948p   -12.6322p
  ibs       535.9093f  -520.0131f
  ibd       535.9113f  -520.0110f
  vgs      -493.2306m   506.7691m
  vds        -1.8878u    -1.8878u
  vbs       506.7694m  -493.2306m
  vth      -661.9147m   627.7158m
  vdsat     -47.9295m    44.6984m
  vod       168.6841m  -120.9467m
  beta      865.7595u     1.6144m
  gam eff   290.4900m   310.3100m
  gm         97.5425p   237.5768p
  gds         2.4906u     6.7001u
  gmb         8.3513p    20.5857p
  cdtot     126.9905a   123.2630a
  cgtot     110.6491a   102.5667a
  cstot     116.8262a   156.3923a
  cbtot     108.1268a    96.3642a
  cgs        43.8891a    46.4842a
  cgd        62.2809a    52.6740a



 ****** HSPICE  --  A-2007.09  32-BIT    (Aug 28 2007) 00:36:30 04/26/2020 winnt
 ******  
 .title t_setup measure by zhuoxu                                               
  ******  transient analysis               tnom=  25.000 temp=  25.000          
 ******  
 ***** operating point status is voltage   simulation time is     0.     

   *** parameter datariseat       =    1.500E-10 ***

     node    =voltage       node    =voltage       node    =voltage

 + 0:1       =   0.       0:2       = 493.2312m  0:3       =   0.     
 + 0:vcc!    =   1.0000   1:nclk    = 999.9997m  1:oi1     = 999.9997m
 + 1:oi2     = 999.9997m  1:oi3     = 192.6577n  1:oi4     = 999.9996m
 + 1:oi5     = 493.2287m  1:ot1     = 999.9996m  1:ot3     = 493.2306m

 ******  
 .title t_setup measure by zhuoxu                                               
  ******  transient analysis               tnom=  25.000 temp=  25.000          
 ******  
   tclktoq=  1.8988E-11  targ=  2.1949E-10   trig=  2.0050E-10
   tsetup=  5.0000E-11  targ=  2.0050E-10   trig=  1.5050E-10

          ***** job concluded
 ****** HSPICE  --  A-2007.09  32-BIT    (Aug 28 2007) 00:36:30 04/26/2020 winnt
 ******  
 .title t_setup measure by zhuoxu                                               
  ******  transient analysis               tnom=  25.000 temp=  25.000          
 ******  
 ***** operating point status is voltage   simulation time is     0.     

   *** parameter datariseat       =    1.500E-10 ***

     node    =voltage       node    =voltage       node    =voltage

 + 0:1       =   0.       0:2       = 493.2312m  0:3       =   0.     
 + 0:vcc!    =   1.0000   1:nclk    = 999.9997m  1:oi1     = 999.9997m
 + 1:oi2     = 999.9997m  1:oi3     = 192.6577n  1:oi4     = 999.9996m
 + 1:oi5     = 493.2287m  1:ot1     = 999.9996m  1:ot3     = 493.2306m

 ******  
 .title t_setup measure by zhuoxu                                               
  ******  transient analysis               tnom=  25.000 temp=  25.000          
 ******  
   tclktoq=  1.8988E-11  targ=  2.1949E-10   trig=  2.0050E-10
   tsetup=  4.9990E-11  targ=  2.0050E-10   trig=  1.5051E-10

          ***** job concluded
 ****** HSPICE  --  A-2007.09  32-BIT    (Aug 28 2007) 00:36:30 04/26/2020 winnt
 ******  
 .title t_setup measure by zhuoxu                                               
  ******  transient analysis               tnom=  25.000 temp=  25.000          
 ******  
 ***** operating point status is voltage   simulation time is     0.     

   *** parameter datariseat       =    1.500E-10 ***

     node    =voltage       node    =voltage       node    =voltage

 + 0:1       =   0.       0:2       = 493.2312m  0:3       =   0.     
 + 0:vcc!    =   1.0000   1:nclk    = 999.9997m  1:oi1     = 999.9997m
 + 1:oi2     = 999.9997m  1:oi3     = 192.6577n  1:oi4     = 999.9996m
 + 1:oi5     = 493.2287m  1:ot1     = 999.9996m  1:ot3     = 493.2306m

 ******  
 .title t_setup measure by zhuoxu                                               
  ******  transient analysis               tnom=  25.000 temp=  25.000          
 ******  
   tclktoq=  1.8988E-11  targ=  2.1949E-10   trig=  2.0050E-10
   tsetup=  4.9980E-11  targ=  2.0050E-10   trig=  1.5052E-10

          ***** job concluded
 ****** HSPICE  --  A-2007.09  32-BIT    (Aug 28 2007) 00:36:30 04/26/2020 winnt
 ******  
 .title t_setup measure by zhuoxu                                               
  ******  transient analysis               tnom=  25.000 temp=  25.000          
 ******  
 ***** operating point status is voltage   simulation time is     0.     

   *** parameter datariseat       =    1.500E-10 ***

     node    =voltage       node    =voltage       node    =voltage

 + 0:1       =   0.       0:2       = 493.2312m  0:3       =   0.     
 + 0:vcc!    =   1.0000   1:nclk    = 999.9997m  1:oi1     = 999.9997m
 + 1:oi2     = 999.9997m  1:oi3     = 192.6577n  1:oi4     = 999.9996m
 + 1:oi5     = 493.2287m  1:ot1     = 999.9996m  1:ot3     = 493.2306m

 ******  
 .title t_setup measure by zhuoxu                                               
  ******  transient analysis               tnom=  25.000 temp=  25.000          
 ******  
   tclktoq=  1.8988E-11  targ=  2.1949E-10   trig=  2.0050E-10
   tsetup=  4.9970E-11  targ=  2.0050E-10   trig=  1.5053E-10

          ***** job concluded
 ****** HSPICE  --  A-2007.09  32-BIT    (Aug 28 2007) 00:36:30 04/26/2020 winnt
 ******  
 .title t_setup measure by zhuoxu                                               
